
**** 02/04/21 21:32:22 ********* PSpice 9.2 (Mar 2000) ******** ID# 1 ********

 ** Profile: "SCHEMATIC1-soal1"  [ C:\Users\arian 3\Desktop\proje1\soal1-SCHEMATIC1-soal1.sim ] 


 ****     CIRCUIT DESCRIPTION


******************************************************************************




** Creating circuit file "soal1-SCHEMATIC1-soal1.sim.cir" 
** WARNING: THIS AUTOMATICALLY GENERATED FILE MAY BE OVERWRITTEN BY SUBSEQUENT SIMULATIONS

*Libraries: 
* Local Libraries :
* From [PSPICE NETLIST] section of C:\Program Files\Orcad\PSpice\PSpice.ini file:
.lib "nom.lib" 

*Analysis directives: 
.TRAN  0 100ms 0 
.PROBE V(*) I(*) W(*) D(*) NOISE(*) 
.INC ".\soal1-SCHEMATIC1.net" 



**** INCLUDING soal1-SCHEMATIC1.net ****
* source SOAL1
R_R1         N00310 N00283  4k  
R_R2         0 N00565  2k  
C_C1         0 N00348  2u  
L_L1         N00283 N00565  50mH  
V_V1         N00310 0  
+SIN 0 8 159.23Hz 0 0 50
X_F1    N00283 N00348 0 N00565 SCHEMATIC1_F1 

.subckt SCHEMATIC1_F1 1 2 3 4  
F_F1         3 4 VF_F1 0.5
VF_F1         1 2 0V
.ends SCHEMATIC1_F1

**** RESUMING soal1-SCHEMATIC1-soal1.sim.cir ****
.END

**** 02/04/21 21:32:22 ********* PSpice 9.2 (Mar 2000) ******** ID# 1 ********

 ** Profile: "SCHEMATIC1-soal1"  [ C:\Users\arian 3\Desktop\proje1\soal1-SCHEMATIC1-soal1.sim ] 


 ****     INITIAL TRANSIENT SOLUTION       TEMPERATURE =   27.000 DEG C


******************************************************************************



 NODE   VOLTAGE     NODE   VOLTAGE     NODE   VOLTAGE     NODE   VOLTAGE


(N00283)    2.0428 (N00310)    6.1284 (N00348)    2.0428 (N00565)    2.0428 




    VOLTAGE SOURCE CURRENTS
    NAME         CURRENT

    V_V1        -1.021E-03
    X_F1.VF_F1   0.000E+00

    TOTAL POWER DISSIPATION   6.26E-03  WATTS



          JOB CONCLUDED

          TOTAL JOB TIME            0.00
